! Created with skrf 1.11.0 (http://scikit-rf.org).
# GHz S RI R 50.0 
!freq ReS11 ImS11 ReS21 ImS21 ReS12 ImS12 ReS22 ImS22
1.0 0.07144329267614406 0.06997039325022279 0.000433839479392624 0.020824295010845987 0.000433839479392624 0.020824295010845987 0.07144329267614406 0.06997039325022279
1.09 0.0715150936279702 0.06989700553945538 0.0005235732622517811 0.022875732409932546 0.0005235732622517811 0.022875732409932546 0.0715150936279702 0.06989700553945538
1.18 0.07158855182364987 0.06982176772176853 0.0006242077732825451 0.024976351573805185 0.0006242077732825451 0.024976351573805185 0.07158855182364987 0.06982176772176853
1.27 0.0716638583102714 0.06974447226902893 0.0007366728333515876 0.027131718458073967 0.0007366728333515876 0.027131718458073967 0.0716638583102714 0.06974447226902893
1.36 0.0717412182595243 0.06966489505223773 0.0008620377548339878 0.029347821822807076 0.0008620377548339878 0.029347821822807076 0.0717412182595243 0.06966489505223773
1.45 0.07182085301794901 0.0695827929288137 0.001001531700425407 0.0316311339455046 0.001001531700425407 0.0316311339455046 0.07182085301794901 0.0695827929288137
1.54 0.0719030024409382 0.06949790097534196 0.001156568006049251 0.03398867982868174 0.001156568006049251 0.03398867982868174 0.0719030024409382 0.06949790097534196
1.63 0.07198792756427792 0.06940992929689725 0.001328773310185638 0.03642811649915181 0.001328773310185638 0.03642811649915181 0.07198792756427792 0.06940992929689725
1.72 0.07207591367808425 0.06931855932915332 0.0015200225445666333 0.03895782432362772 0.0015200225445666333 0.03895782432362772 0.07207591367808425 0.06931855932915332
1.81 0.07216727388178273 0.06922343953078149 0.0017324811138166086 0.04158701267231004 0.0017324811138166086 0.04158701267231004 0.07216727388178273 0.06922343953078149
1.9 0.07226235321604199 0.06912418034002274 0.001968655943508627 0.04432584277015739 0.001968655943508627 0.04432584277015739 0.07226235321604199 0.06912418034002274
1.99 0.0723615334892905 0.06902034823932932 0.002231457533375016 0.04718557121251963 0.002231457533375016 0.04718557121251963 0.0723615334892905 0.06902034823932932
2.08 0.07246523894391407 0.06891145873366374 0.002524275750783682 0.05017871842442464 0.002524275750783682 0.05017871842442464 0.07246523894391407 0.06891145873366374
2.17 0.07257394294217323 0.06879696799878746 0.0028510728883569146 0.05331926735939071 0.0028510728883569146 0.05331926735939071 0.07257394294217323 0.06879696799878746
2.26 0.0726881758966023 0.06867626289209836 0.003216498557336441 0.056622899028282644 0.003216498557336441 0.056622899028282644 0.0726881758966023 0.06867626289209836
2.35 0.07280853472726682 0.06854864893539755 0.003626032391253782 0.06010727310693245 0.003626032391253782 0.06010727310693245 0.07280853472726682 0.06854864893539755
2.44 0.07293569420299328 0.06841333576962501 0.004086162429089503 0.0637923640077133 0.004086162429089503 0.0637923640077133 0.07293569420299328 0.06841333576962501
2.53 0.07307042062134216 0.06826941943667118 0.004604609628735952 0.06770086556982054 0.004604609628735952 0.06770086556982054 0.07307042062134216 0.06826941943667118
2.62 0.07321358841068804 0.06811586064956066 0.0051906125128490166 0.07185868113589668 0.0051906125128490166 0.07185868113589668 0.07321358841068804 0.06811586064956066
2.71 0.07336620040847688 0.06795145795068129 0.00585529088364514 0.07629552052586731 0.00585529088364514 0.07629552052586731 0.07336620040847688 0.06795145795068129
2.8 0.07352941279829718 0.06777481430101902 0.006612114473243882 0.08104563168633208 0.006612114473243882 0.08104563168633208 0.07352941279829718 0.06777481430101902
2.89 0.07370456599721713 0.06758429515177225 0.007477512240024305 0.08614870312851261 0.007477512240024305 0.08614870312851261 0.07370456599721713 0.06758429515177225
2.98 0.07389322320607476 0.0673779753644855 0.008471672174625515 0.09165098442019702 0.008471672174625515 0.09165098442019702 0.07389322320607476 0.0673779753644855
3.07 0.07409721891578329 0.06715357137894074 0.00961960209271609 0.09760668700603405 0.00961960209271609 0.09760668700603405 0.07409721891578329 0.06715357137894074
3.16 0.07431872047082962 0.06690835364570474 0.010952552331691644 0.10407974792971594 0.010952552331691644 0.10407974792971594 0.07431872047082962 0.06690835364570474
3.25 0.07456030692887292 0.06663903233595359 0.012509946888243235 0.11114606658400726 0.012509946888243235 0.11114606658400726 0.07456030692887292 0.06663903233595359
3.34 0.07482507107570595 0.06634160639082803 0.01434203899320534 0.11889636205840247 0.01434203899320534 0.11889636205840247 0.07482507107570595 0.06634160639082803
3.43 0.07511675279025583 0.06601116155808497 0.01651361468546925 0.12743984940154746 0.01651361468546925 0.12743984940154746 0.07511675279025583 0.06601116155808497
3.52 0.07543991536162159 0.06564159634127868 0.019109237577586067 0.13690900122632346 0.019109237577586067 0.13690900122632346 0.07543991536162159 0.06564159634127868
3.61 0.07580018139239275 0.0652252443527838 0.02224080076973381 0.1474657504332949 0.02224080076973381 0.1474657504332949 0.07580018139239275 0.0652252443527838
3.7 0.07620455244244662 0.06475234503125277 0.026058599680520406 0.15930960129010052 0.026058599680520406 0.15930960129010052 0.07620455244244662 0.06475234503125277
3.79 0.07666184792330459 0.06421028790609898 0.030767891180046587 0.17268823947327558 0.030767891180046587 0.17268823947327558 0.07666184792330459 0.06421028790609898
3.88 0.07718331603410028 0.06358251116447193 0.03665419561258634 0.18791132365182414 0.03665419561258634 0.18791132365182414 0.07718331603410028 0.06358251116447193
3.97 0.07778349587950584 0.06284685965712926 0.04412287038831025 0.2053680664003209 0.04412287038831025 0.2053680664003209 0.07778349587950584 0.06284685965712926
4.06 0.07848144968858067 0.06197307524061381 0.05376257884919044 0.22554858448829823 0.05376257884919044 0.22554858448829823 0.07848144968858067 0.06197307524061381
4.15 0.07930254194194725 0.06091885456527969 0.06644982295641227 0.24906674604505868 0.06644982295641227 0.24906674604505868 0.07930254194194725 0.06091885456527969
4.24 0.08028101779553892 0.05962347005762382 0.08352583426400158 0.2766753861016627 0.08352583426400158 0.2766753861016627 0.08028101779553892 0.05962347005762382
4.33 0.0814636984763388 0.05799711915738709 0.1071035805635789 0.3092448925916802 0.1071035805635789 0.3092448925916802 0.0814636984763388 0.05799711915738709
4.42 0.08291502613996864 0.055902579906551 0.1406102343563711 0.3476190391083571 0.1406102343563711 0.3476190391083571 0.08291502613996864 0.055902579906551
4.51 0.08472289380158557 0.05312279422136277 0.18974191227125556 0.3920968235001435 0.18974191227125556 0.3920968235001435 0.08472289380158557 0.05312279422136277
4.6 0.08700110694311078 0.049303218867264666 0.2640300265527364 0.44081534867935085 0.2640300265527364 0.44081534867935085 0.08700110694311078 0.049303218867264666
4.69 0.08987077375956576 0.04385480616599447 0.37865709346927984 0.4850524703933349 0.37865709346927984 0.4850524703933349 0.08987077375956576 0.04385480616599447
4.78 0.09335955670506298 0.035832850456447525 0.5523482698790143 0.49725210772873935 0.5523482698790143 0.49725210772873935 0.09335955670506298 0.035832850456447525
4.87 0.09707446498393768 0.024011419118458208 0.7826770160617648 0.41242418041431167 0.7826770160617648 0.41242418041431167 0.09707446498393768 0.024011419118458208
4.96 0.09968302416933972 0.007955796154680787 0.9748423717417847 0.15660371004109958 0.9748423717417847 0.15660371004109958 0.09968302416933972 0.007955796154680787
5.05 0.0995180127607523 -0.009806382419156538 0.9619038548761386 -0.1914283909208951 0.9619038548761386 -0.1914283909208951 0.0995180127607523 -0.009806382419156538
5.14 0.09683328814955013 -0.024966263359705962 0.766215106511382 -0.42323695144107343 0.766215106511382 -0.42323695144107343 0.09683328814955013 -0.024966263359705962
5.23 0.09336431201427577 -0.03582045842951989 0.5526122656518938 -0.4972242446854081 0.5526122656518938 -0.4972242446854081 0.09336431201427577 -0.03582045842951989
5.32 0.09020231147838581 -0.04316877348218583 0.3934944995212663 -0.4885249004582822 0.3934944995212663 -0.4885249004582822 0.09020231147838581 -0.04316877348218583
5.41 0.08761609959445643 -0.04820185776351667 0.2865634143140042 -0.45215575180539785 0.2865634143140042 -0.45215575180539785 0.08761609959445643 -0.04820185776351667
5.5 0.0855572029308625 -0.051768378636453484 0.21530249110320265 -0.41103202846975073 0.21530249110320265 -0.41103202846975073 0.0855572029308625 -0.051768378636453484
5.59 0.08391487927808994 -0.05439019245915197 0.1667426931157248 -0.3727459824173025 0.1667426931157248 -0.3727459824173025 0.08391487927808994 -0.05439019245915197
5.68 0.08258929090286204 -0.056382701497555344 0.13264032478055762 -0.33918559672053566 0.13264032478055762 -0.33918559672053566 0.08258929090286204 -0.056382701497555344
5.77 0.08150376521417725 -0.05794079957950418 0.10796005126551801 -0.3103299511749788 0.10796005126551801 -0.3103299511749788 0.08150376521417725 -0.05794079957950418
5.86 0.08060190783403004 -0.059188955502817664 0.08960054978811355 -0.2856086330379061 0.08960054978811355 -0.2856086330379061 0.08060190783403004 -0.059188955502817664
5.95 0.07984250939624804 -0.060209415321111064 0.07560589494266988 -0.2643664948373523 0.07560589494266988 -0.2643664948373523 0.07984250939624804 -0.060209415321111064
6.04 0.07919523998450216 -0.06105828333483601 0.06470776356351575 -0.2460094894473055 0.06470776356351575 -0.2460094894473055 0.07919523998450216 -0.06105828333483601
6.13 0.0786374982756349 -0.06177494528487676 0.05606061393986665 -0.2300387391387631 0.05606061393986665 -0.2300387391387631 0.0786374982756349 -0.06177494528487676
6.22 0.07815220288003633 -0.06238776470589119 0.04908589265681874 -0.21604737396900248 0.04908589265681874 -0.21604737396900248 0.07815220288003633 -0.06238776470589119
6.31 0.0777262588594553 -0.06291763412361392 0.043378168735417166 -0.20370690516666054 0.043378168735417166 -0.20370690516666054 0.0777262588594553 -0.06291763412361392
6.4 0.07734948872840833 -0.06338025397120016 0.03864710961890326 -0.19275245922428003 0.03864710961890326 -0.19275245922428003 0.07734948872840833 -0.06338025397120016
6.49 0.07701387982387531 -0.06378763449504687 0.03468069557629145 -0.1829697923992812 0.03468069557629145 -0.1829697923992812 0.07701387982387531 -0.06378763449504687
6.58 0.07671304780943437 -0.06414910985966553 0.031321333127368504 -0.174184692836348 0.031321333127368504 -0.174184692836348 0.07671304780943437 -0.06414910985966553
6.67 0.07644184915615142 -0.06447203810636201 0.02844999411270847 -0.1662545997790597 0.02844999411270847 -0.1662545997790597 0.07644184915615142 -0.06447203810636201
6.76 0.0761960975015464 -0.06476229401075007 0.02597546425511352 -0.159062061824449 0.02597546425511352 -0.159062061824449 0.0761960975015464 -0.06476229401075007
6.85 0.07597235335705116 -0.06502462245481598 0.023826915416329083 -0.15250965057356927 0.023826915416329083 -0.15250965057356927 0.07597235335705116 -0.06502462245481598
6.94 0.0757677662734301 -0.06526289599715039 0.021948683604196193 -0.14651600217122726 0.021948683604196193 -0.14651600217122726 0.0757677662734301 -0.06526289599715039
7.03 0.07557995499772352 -0.06548030545547331 0.020296538216582095 -0.14101272550023602 0.020296538216582095 -0.14101272550023602 0.07557995499772352 -0.06548030545547331
7.12 0.0754069154799548 -0.06567950287417645 0.01883497691956555 -0.1359419749893497 0.01883497691956555 -0.1359419749893497 0.0754069154799548 -0.06567950287417645
7.21 0.07524694953236821 -0.06586271013307325 0.01753523722933932 -0.13125453395845077 0.01753523722933932 -0.13125453395845077 0.07524694953236821 -0.06586271013307325
7.3 0.0750986089725798 -0.06603180241658983 0.016373816347293773 -0.1269082916342304 0.016373816347293773 -0.1269082916342304 0.0750986089725798 -0.06603180241658983
7.39 0.07496065149624058 -0.06618837305191272 0.015331356380329179 -0.12286702524220447 0.015331356380329179 -0.12286702524220447 0.07496065149624058 -0.06618837305191272
7.48 0.07483200552220191 -0.06633378437512172 0.014391795591742789 -0.1190994198616781 0.014391795591742789 -0.1190994198616781 0.07483200552220191 -0.06633378437512172
7.57 0.07471174196452311 -0.06646920800360508 0.013541715644720955 -0.11557827469779294 0.013541715644720955 -0.11557827469779294 0.07471174196452311 -0.06646920800360508
7.66 0.07459905139849916 -0.0665956569938617 0.012769834837572526 -0.11227985641152936 0.012769834837572526 -0.11227985641152936 0.07459905139849916 -0.0665956569938617
7.75 0.07449322546143458 -0.06671401172431378 0.01206661120964325 -0.10918336917112675 0.01206661120964325 -0.10918336917112675 0.07449322546143458 -0.06671401172431378
7.84 0.07439364160365966 -0.06682504088248835 0.011423929133111086 -0.10627051790723872 0.011423929133111086 -0.10627051790723872 0.07439364160365966 -0.06682504088248835
7.93 0.07429975050929308 -0.06692941860091721 0.01083484991658615 -0.10352514643250307 0.01083484991658615 -0.10352514643250307 0.07429975050929308 -0.06692941860091721
8.02 0.07421106565907074 -0.06702773853969038 0.010293411906268549 -0.10093293603971128 0.010293411906268549 -0.10093293603971128 0.07421106565907074 -0.06702773853969038
8.11 0.07412715462299833 -0.06712052553055657 0.009794469167382433 -0.09848115322797363 0.009794469167382433 -0.09848115322797363 0.07412715462299833 -0.06712052553055657
8.2 0.07404763175848715 -0.06720824526023192 0.00933356046292684 -0.09615843754976325 0.00933356046292684 -0.09615843754976325 0.07404763175848715 -0.06720824526023192
8.29 0.07397215205707634 -0.06729131236678904 0.008906802194042444 -0.09395462239144302 0.008906802194042444 -0.09395462239144302 0.07397215205707634 -0.06729131236678904
8.38 0.07390040593496831 -0.06737009724385813 0.008510800418325137 -0.09186058292088382 0.008510800418325137 -0.09186058292088382 0.07390040593496831 -0.06737009724385813
8.47 0.07383211480316254 -0.06744493178655181 0.008142578154164219 -0.0898681065515879 0.008142578154164219 -0.0898681065515879 0.07383211480316254 -0.06744493178655181
8.56 0.07376702728474173 -0.06751611426594521 0.0077995150064963225 -0.08796978215364497 0.0077995150064963225 -0.08796978215364497 0.07376702728474173 -0.06751611426594521
8.65 0.07370491597190086 -0.06758391348224098 0.007479296780967788 -0.0861589049409868 0.007479296780967788 -0.0861589049409868 0.07370491597190086 -0.06758391348224098
8.74 0.07364557463516097 -0.06764857231795017 0.007179873239102119 -0.08442939452212447 0.007179873239102119 -0.08442939452212447 0.07364557463516097 -0.06764857231795017
8.83 0.07358881581303528 -0.06771031078968084 0.006899422522930437 -0.08277572404866368 0.006899422522930437 -0.08277572404866368 0.07358881581303528 -0.06771031078968084
8.92 0.07353446872310361 -0.0677693286790632 0.006636321070328987 -0.08119285875605375 0.006636321070328987 -0.08119285875605375 0.07353446872310361 -0.0677693286790632
9.01 0.07348237744567365 -0.06782580780891262 0.00638911807176616 -0.0796762024824928 0.00638911807176616 -0.0796762024824928 0.07348237744567365 -0.06782580780891262
9.1 0.07343239933948623 -0.06787991401914284 0.006156513700038416 -0.07822155098883973 0.006156513700038416 -0.07822155098883973 0.07343239933948623 -0.06787991401914284
9.19 0.0733844036556565 -0.06793179888758775 0.005937340487944396 -0.07682505109581515 0.005937340487944396 -0.07682505109581515 0.0733844036556565 -0.06793179888758775
9.28 0.07333827032154837 -0.06798160123330062 0.005730547343090297 -0.07548316481334691 0.005730547343090297 -0.07548316481334691 0.07333827032154837 -0.06798160123330062
9.37 0.07329388887079603 -0.06802944843371438 0.0055351857805157004 -0.07419263776744207 0.0055351857805157004 -0.07419263776744207 0.07329388887079603 -0.06802944843371438
9.46 0.07325115749941268 -0.06807545758198207 0.005350398027462257 -0.07295047133781925 0.005350398027462257 -0.07295047133781925 0.07325115749941268 -0.06807545758198207
9.55 0.07320998223100603 -0.06811973650665264 0.005175406714140918 -0.07175389800898724 0.005175406714140918 -0.07175389800898724 0.07320998223100603 -0.06811973650665264
9.64 0.07317027617668219 -0.0681623846723987 0.005009505912701448 -0.07060035951191791 0.005009505912701448 -0.07060035951191791 0.07317027617668219 -0.0681623846723987
9.73 0.0731319588773527 -0.0682034939776636 0.004852053326040218 -0.06948748739565619 0.004852053326040218 -0.06948748739565619 0.0731319588773527 -0.0682034939776636
9.82 0.07309495571794601 -0.06824314946272272 0.0047024634603746425 -0.06841308572033925 0.0047024634603746425 -0.06841308572033925 0.07309495571794601 -0.06824314946272272
9.91 0.07305919740452448 -0.06828142993967486 0.004560201642063247 -0.06737511560692841 0.004560201642063247 -0.06737511560692841 0.07305919740452448 -0.06828142993967486
10.0 0.07302461949657027 -0.06831840855421861 0.004424778761061948 -0.0663716814159292 0.004424778761061948 -0.0663716814159292 0.07302461949657027 -0.06831840855421861
