! Created with skrf 1.11.0 (http://scikit-rf.org).
# GHz S RI R 50.0 
!freq ReS11 ImS11
!
1.0 0.07144329267614406 0.06997039325022279
1.09 0.0715150936279702 0.06989700553945538
1.18 0.07158855182364987 0.06982176772176853
1.27 0.0716638583102714 0.06974447226902893
1.36 0.0717412182595243 0.06966489505223773
1.45 0.07182085301794901 0.0695827929288137
1.54 0.0719030024409382 0.06949790097534196
1.63 0.07198792756427792 0.06940992929689725
1.72 0.07207591367808425 0.06931855932915332
1.81 0.07216727388178273 0.06922343953078149
1.9 0.07226235321604199 0.06912418034002274
1.99 0.0723615334892905 0.06902034823932932
2.08 0.07246523894391407 0.06891145873366374
2.17 0.07257394294217323 0.06879696799878746
2.26 0.0726881758966023 0.06867626289209836
2.35 0.07280853472726682 0.06854864893539755
2.44 0.07293569420299328 0.06841333576962501
2.53 0.07307042062134216 0.06826941943667118
2.62 0.07321358841068804 0.06811586064956066
2.71 0.07336620040847688 0.06795145795068129
2.8 0.07352941279829718 0.06777481430101902
2.89 0.07370456599721713 0.06758429515177225
2.98 0.07389322320607476 0.0673779753644855
3.07 0.07409721891578329 0.06715357137894074
3.16 0.07431872047082962 0.06690835364570474
3.25 0.07456030692887292 0.06663903233595359
3.34 0.07482507107570595 0.06634160639082803
3.43 0.07511675279025583 0.06601116155808497
3.52 0.07543991536162159 0.06564159634127868
3.61 0.07580018139239275 0.0652252443527838
3.7 0.07620455244244662 0.06475234503125277
3.79 0.07666184792330459 0.06421028790609898
3.88 0.07718331603410028 0.06358251116447193
3.97 0.07778349587950584 0.06284685965712926
4.06 0.07848144968858067 0.06197307524061381
4.15 0.07930254194194725 0.06091885456527969
4.24 0.08028101779553892 0.05962347005762382
4.33 0.0814636984763388 0.05799711915738709
4.42 0.08291502613996864 0.055902579906551
4.51 0.08472289380158557 0.05312279422136277
4.6 0.08700110694311078 0.049303218867264666
4.69 0.08987077375956576 0.04385480616599447
4.78 0.09335955670506298 0.035832850456447525
4.87 0.09707446498393768 0.024011419118458208
4.96 0.09968302416933972 0.007955796154680787
5.05 0.0995180127607523 -0.009806382419156538
5.14 0.09683328814955013 -0.024966263359705962
5.23 0.09336431201427577 -0.03582045842951989
5.32 0.09020231147838581 -0.04316877348218583
5.41 0.08761609959445643 -0.04820185776351667
5.5 0.0855572029308625 -0.051768378636453484
5.59 0.08391487927808994 -0.05439019245915197
5.68 0.08258929090286204 -0.056382701497555344
5.77 0.08150376521417725 -0.05794079957950418
5.86 0.08060190783403004 -0.059188955502817664
5.95 0.07984250939624804 -0.060209415321111064
6.04 0.07919523998450216 -0.06105828333483601
6.13 0.0786374982756349 -0.06177494528487676
6.22 0.07815220288003633 -0.06238776470589119
6.31 0.0777262588594553 -0.06291763412361392
6.4 0.07734948872840833 -0.06338025397120016
6.49 0.07701387982387531 -0.06378763449504687
6.58 0.07671304780943437 -0.06414910985966553
6.67 0.07644184915615142 -0.06447203810636201
6.76 0.0761960975015464 -0.06476229401075007
6.85 0.07597235335705116 -0.06502462245481598
6.94 0.0757677662734301 -0.06526289599715039
7.03 0.07557995499772352 -0.06548030545547331
7.12 0.0754069154799548 -0.06567950287417645
7.21 0.07524694953236821 -0.06586271013307325
7.3 0.0750986089725798 -0.06603180241658983
7.39 0.07496065149624058 -0.06618837305191272
7.48 0.07483200552220191 -0.06633378437512172
7.57 0.07471174196452311 -0.06646920800360508
7.66 0.07459905139849916 -0.0665956569938617
7.75 0.07449322546143458 -0.06671401172431378
7.84 0.07439364160365966 -0.06682504088248835
7.93 0.07429975050929308 -0.06692941860091721
8.02 0.07421106565907074 -0.06702773853969038
8.11 0.07412715462299833 -0.06712052553055657
8.2 0.07404763175848715 -0.06720824526023192
8.29 0.07397215205707634 -0.06729131236678904
8.38 0.07390040593496831 -0.06737009724385813
8.47 0.07383211480316254 -0.06744493178655181
8.56 0.07376702728474173 -0.06751611426594521
8.65 0.07370491597190086 -0.06758391348224098
8.74 0.07364557463516097 -0.06764857231795017
8.83 0.07358881581303528 -0.06771031078968084
8.92 0.07353446872310361 -0.0677693286790632
9.01 0.07348237744567365 -0.06782580780891262
9.1 0.07343239933948623 -0.06787991401914284
9.19 0.0733844036556565 -0.06793179888758775
9.28 0.07333827032154837 -0.06798160123330062
9.37 0.07329388887079603 -0.06802944843371438
9.46 0.07325115749941268 -0.06807545758198207
9.55 0.07320998223100603 -0.06811973650665264
9.64 0.07317027617668219 -0.0681623846723987
9.73 0.0731319588773527 -0.0682034939776636
9.82 0.07309495571794601 -0.06824314946272272
9.91 0.07305919740452448 -0.06828142993967486
10.0 0.07302461949657027 -0.06831840855421861
